 ****** HSPICE -- D-2010.03-SP1 32-BIT (May 26 2010) winnt ******               
  Copyright (C) 2010 Synopsys, Inc. All Rights Reserved.                        
  Unpublished-rights reserved under US copyright laws.
  This program is protected by law and is subject to the 
  terms and conditions of the license agreement from Synopsys.
  Use of this program is your acceptance to be bound by the 
  license agreement. HSPICE is the trademark of Synopsys, Inc.
  Input File: c:\users\personal account\desktop\sim2\q1.sp                      
  lic:  
  lic: FLEXlm: v8.5b 
  lic: USER:   Personal Account     HOSTNAME: Personal-Account 
  lic: HOSTID: "8c164510c74c 74e5f9801d02 00ff2d13c27d 74e5f9801cfe 74e5f9801cff
  
  lic: Using FLEXlm license file: 
  lic: 27000@elena 
  lic: Checkout 1 hspice 
  lic: License/Maintenance for hspice will expire on 31-dec-2020/2007.9 
  lic: NODE LOCKED license on hostid "8c164510c74c 74e5f9801d02 00ff2d13c27d 74e
 5
  lic:   
 Init: read install configuration file: C:\synopsys\Hspice_D-2010.03-SP1\meta.cfg
1****** HSPICE -- D-2010.03-SP1 32-BIT (May 26 2010) winnt ******               
 ******  
 lab4 - arsalan firoozi 97102225

  ******  bjt   model parameters tnom=  25.000 temp=  25.000 *****

 ************************************************************************
 *** bjt model parameters   model name:   0:mynpn    model type:npn   ***
 ************************************************************************

     names  values   units     names  values   units     names  values   units
     -----  ------   -----     -----  ------   -----     -----  ------   -----

   1*** basic dc parameters ***
    level=   1.00                bf= 100.00                br=   1.00         
      brs=   0.                bulk=  gnd                  is= 1.0e-16 amps   
      iss=   0.    amps          nf=   1.00                nr=   1.00         
       ns=   1.00               ibe=   0.    amps         ibc=   0.    amps   
     subs=   1.00             expli=   0.    amps   

   2*** low current beta degradation effect parameters ***
      isc=   0.    amps         ise=   0.    amps          nc=   2.00         
       ne=   1.50         

   3*** base width modulation parameters ***
      vaf= 150.00  volts        var=   0.    volts  

   4*** high current beta degradation effect parameters ***
      ikf=   0.    amps         nkf= 500.00m              ikr=   0.    amps   

   5*** parasitic resistor parameters ***
      irb=   0.    amps          rb=   0.    ohms         rbm=   0.    ohms   
       re=   0.    ohms          rc=   0.    ohms         rcc=   0.    ohms   
       vo=   0.    volts      gamma=   0.           

   6*** junction capacitor parameters ***
     cbcp=   0.    farad       cbep=   0.    farad       ccsp=   0.    farad  
      cjc=   2.00p farad        cje=   2.00p farad        cjs=   2.50p farad  
       fc= 500.00m              mjc= 500.00m              mje= 500.00m        
      mjs= 500.00m              vjc= 750.00m volts        vje= 750.00m volts  
      vjs= 750.00m volts       xcjc=   1.00               qco=   0.    coul   

   7*** transit time parameters ***
      itf=   0.    amps         ptf=   0.    deg k         tf= 100.00p secs   
       tr=   0.    secs         vtf=   0.                 xtf=   0.           

   8*** temperature compensation parameters ***
     tlev=   0.               tlevc=   0.                tre1=   0.    /deg   
     tre2=   0.    /deg2       trb1=   0.    /deg        trc1=   0.    /deg   
     trb2=   0.    /deg2       trm1=   0.    /deg         xtb=   0.           
     trm2=   0.    /deg2        xti=   3.00               cte=   0.    /deg   
      ctc=   0.    /deg         cts=   0.    /deg        trc2=   0.    /deg2  
     tref=  25.00   deg c       bex=   2.42              bexv=   1.90         

   9*** noise parameters ***
       kf=   0.                  af=   1.00         
  **info** (c:\users\personal account\desktop\sim2\q1.sp:11) DC voltage reset to initial transient source value              in source        0:vid                 new dc=  0.0000D+00
 
      
 *****************************************************************
 ******  option summary
 ******
 runlvl  = 3         bypass  = 2         
1****** HSPICE -- D-2010.03-SP1 32-BIT (May 26 2010) winnt ******               
 ******  
 lab4 - arsalan firoozi 97102225

  ******  operating point information tnom=  25.000 temp=  25.000 *****
 ***** operating point status is all       simulation time is     0.     
    node    =voltage      node    =voltage      node    =voltage

 +0:1       =-269.8360u 0:2       =-753.4729m 0:3       =   0.     
 +0:4       = 774.0308m 0:5       =  -7.1630m 0:6       = -34.4894m
 +0:100     =  10.0000  0:200     = -10.0000 


 ****  voltage sources

 subckt                                   
 element  0:vcc      0:vee      0:vid     
  volts     10.0000   -10.0000     0.     
  current   -5.9702m    6.0000m   -5.3967u
  power     59.7020m   60.0000m    0.     

     total voltage source power dissipation=  119.7020m       watts



 ***** current sources

 subckt                        
 element  0:i1       0:i2      
  volts      9.2465     9.9655 
  current    1.0000m    5.0000m
  power     -9.2465m  -49.8276m


     total current source power dissipation= -59.0741m       watts

 **** resistors

 subckt                                                         
 element  0:r1       0:r2       0:r5       0:r3       0:r4      
  r value   20.0000k   50.0000     2.0000k    9.0000k    1.0000k
  v drop     9.2260   269.8360u  -34.4894m  -27.3263m   -7.1630m
  current  461.2985u    5.3967u  -17.2447u   -3.0363u   -7.1630u
  power      4.2559m    1.4562n  594.7580n   82.9699n   51.3088n


 **** bipolar junction transistors


 subckt                                   
 element  0:q1       0:q2       0:q3      
 model    0:mynpn    0:mynpn    0:mynpn   
  ib         5.3967u    4.1268u   46.4740u
  ic       575.6520u  414.8245u    4.9332m
  vbe      753.2030m  746.3099m  808.5201m
  vce       10.7535     1.5275    10.0345 
  vbc      -10.0003  -781.1938m   -9.2260 
  vs       -10.0000  -774.0308m  -10.0000 
  power      6.1943m  636.7257u   49.5402m
  betad    106.6668   100.5208   106.1506 
  gm        22.4024m   16.1434m  191.9850m
  rpi        4.7606k    6.2257k  552.8219 
  rx         0.         0.         0.     
  ro       277.9461k  363.4819k   32.2761k
  cpi        5.2449p    4.6097p   22.2796p
  cmu      528.2639f    1.3997p  548.3819f
  cbx        0.         0.         0.     
  ccs      660.3382f    1.7538p  660.3382f
  betaac   106.6497   100.5037   106.1335 
  ft       617.5943x  427.5451x    1.3385g



1****** HSPICE -- D-2010.03-SP1 32-BIT (May 26 2010) winnt ******               
 ******  
 lab4 - arsalan firoozi 97102225

  ******  fft analysis tnom=  25.000 temp=  25.000 *****
 fft components of transient response v(6)

 Window: Rectangular     

 DC: ON
 First Harmonic:   55.5556       
 Start Freq:   55.5556       
 Stop  Freq:   28.4444k      

 dc component: mag(dB)=  -5.080E+01  mag=   2.883E-03  phase=   1.800E+02

 frequency    frequency    fft_mag     fft_mag
    fft_phase
   index        (hz)        (dB)                    (deg)

     1        55.5556    -106.6308      4.6608u    177.5772 
     2       111.1111     -92.7414     23.0636u     12.4306 
     3       166.6667    -106.6286      4.6620u    172.7341 
     4       222.2222    -100.4661      9.4775u    160.5184 
     5       277.7778    -106.6243      4.6643u    167.8982 
     6       333.3333    -105.7670      5.1482u    115.4319 
     7       388.8889    -106.6181      4.6676u    163.0743 
     8       444.4444    -108.3758      3.8125u    171.2599 
     9       500.0000    -106.6101      4.6719u    158.2672 
    10       555.5556    -105.4800      5.3211u    132.2680 
    11       611.1111    -106.6007      4.6770u    153.4817 
    12       666.6667    -113.8715      2.0250u     55.8683 
    13       722.2222    -106.5901      4.6827u    148.7224 
    14       777.7778    -106.2672      4.8601u    163.4312 
    15       833.3333    -106.5787      4.6888u    143.9935 
    16       888.8889     -89.7461     32.5607u     34.6100 
    17       944.4444    -106.5669      4.6952u    139.2992 
    18         1.0000k      0.          1.0000     -90.0840 
    19         1.0556k   -106.5549      4.7017u    134.6428 
    20         1.1111k    -87.8238     40.6267u     76.4128 
    21         1.1667k   -106.5433      4.7080u    130.0274 
    22         1.2222k   -102.3235      7.6529u   -157.7815 
    23         1.2778k   -106.5323      4.7139u    125.4552 
    24         1.3333k   -106.9627      4.4861u    154.3612 
    25         1.3889k   -106.5227      4.7192u    120.9283 
    26         1.4444k   -112.5281      2.3637u     94.4728 
    27         1.5000k   -106.5148      4.7234u    116.4481 
    28         1.5556k   -105.7612      5.1516u    122.9565 
    29         1.6111k   -106.5094      4.7264u    112.0162 
    30         1.6667k   -102.9315      7.1355u     85.5651 
    31         1.7222k   -106.5072      4.7276u    107.6340 
    32         1.7778k   -105.4199      5.3580u    175.2985 
    33         1.8333k   -106.5089      4.7266u    103.3033 
    34         1.8889k    -92.2049     24.5334u     74.7371 
    35         1.9444k   -106.5152      4.7232u     99.0260 
    36         2.0000k    -31.2391     27.4184m   -179.6321 
    37         2.0556k   -106.5268      4.7169u     94.8043 
    38         2.1111k    -91.8476     25.5634u    125.5354 
    39         2.1667k   -106.5443      4.7074u     90.6406 
    40         2.2222k    -99.0225     11.1911u    -19.4680 
    41         2.2778k   -106.5683      4.6945u     86.5370 
    42         2.3333k   -104.9952      5.6265u     44.2788 
    43         2.3889k   -106.5992      4.6778u     82.4957 
    44         2.4444k   -102.6985      7.3295u     67.3397 
    45         2.5000k   -106.6377      4.6571u     78.5189 
    46         2.5556k   -114.2206      1.9452u     60.2694 
    47         2.6111k   -106.6841      4.6323u     74.6086 
    48         2.6667k   -111.0500      2.8022u     78.5956 
    49         2.7222k   -106.7391      4.6031u     70.7668 
    50         2.7778k   -101.0548      8.8564u    -26.7852 
    51         2.8333k   -106.8029      4.5693u     66.9959 
    52         2.8889k   -101.4200      8.4918u    113.3252 
    53         2.9444k   -106.8762      4.5310u     63.2986 
    54         3.0000k    -32.7114     23.1435m    -91.5122 
    55         3.0556k   -106.9594      4.4878u     59.6778 
    56         3.1111k    -94.0615     19.8119u    151.1807 
    57         3.1667k   -107.0528      4.4398u     56.1369 
    58         3.2222k   -101.3075      8.6025u     50.1549 
    59         3.2778k   -107.1568      4.3869u     52.6797 
    60         3.3333k   -112.0452      2.4989u    108.6517 
    61         3.3889k   -107.2719      4.3292u     49.3104 
    62         3.4444k   -104.5365      5.9316u     55.0835 
    63         3.5000k   -107.3982      4.2667u     46.0338 
    64         3.5556k   -104.2093      6.1594u      4.4329 
    65         3.6111k   -107.5361      4.1995u     42.8552 
    66         3.6667k   -101.7800      8.1470u     44.4455 
    67         3.7222k   -107.6858      4.1277u     39.7807 
    68         3.7778k    -96.5526     14.8720u     29.0468 
    69         3.8333k   -107.8474      4.0517u     36.8172 
    70         3.8889k    -97.0855     13.9870u   -100.0739 
    71         3.9444k   -108.0209      3.9715u     33.9723 
    72         4.0000k    -35.3527     17.0752m     -3.0177 
    73         4.0556k   -108.2063      3.8876u     31.2549 
    74         4.1111k    -96.7120     14.6017u    -97.4002 
    75         4.1667k   -108.4033      3.8004u     28.6742 
    76         4.2222k   -102.9183      7.1464u    -15.5516 
    77         4.2778k   -108.6116      3.7104u     26.2405 
    78         4.3333k   -104.6063      5.8842u    -24.6868 
    79         4.3889k   -108.8305      3.6181u     23.9649 
    80         4.4444k   -110.7459      2.9021u     48.6757 
    81         4.5000k   -109.0593      3.5240u     21.8595 
    82         4.5556k   -107.8334      4.0582u      9.7962 
    83         4.6111k   -109.2968      3.4289u     19.9372 
    84         4.6667k   -111.5866      2.6343u    172.3866 
    85         4.7222k   -109.5419      3.3335u     18.2125 
    86         4.7778k   -101.7898      8.1379u     48.7770 
    87         4.8333k   -109.7925      3.2387u     16.7009 
    88         4.8889k    -93.6189     20.8475u   -107.8303 
    89         4.9444k   -110.0464      3.1454u     15.4186 
    90         5.0000k    -38.8550     11.4091m     84.8056 
    91         5.0556k   -110.3004      3.0548u     14.3818 
    92         5.1111k    -90.8833     28.5652u    -82.8098 
    93         5.1667k   -110.5505      2.9681u     13.6057 
    94         5.2222k   -102.1257      7.8292u     43.0041 
    95         5.2778k   -110.7920      2.8867u     13.1025 
    96         5.3333k   -104.3787      6.0404u     15.4586 
    97         5.3889k   -111.0191      2.8122u     12.8799 
    98         5.4444k   -110.2266      3.0808u    -14.2703 
    99         5.5000k   -111.2253      2.7462u     12.9390 
   100         5.5556k   -106.7946      4.5737u      5.0770 
   101         5.6111k   -111.4034      2.6905u     13.2719 
   102         5.6667k   -104.0816      6.2506u    -29.5150 
   103         5.7222k   -111.5460      2.6467u     13.8605 
   104         5.7778k   -106.8290      4.5556u     74.8557 
   105         5.8333k   -111.6459      2.6164u     14.6740 
   106         5.8889k    -87.3442     42.9328u    -90.4465 
   107         5.9444k   -111.6963      2.6013u     15.6696 
   108         6.0000k    -43.5974      6.6089m    178.3501 
   109         6.0556k   -111.6921      2.6025u     16.7924 
   110         6.1111k    -87.3184     43.0608u    -21.8067 
   111         6.1667k   -111.6300      2.6212u     17.9782 
   112         6.2222k   -103.6904      6.5385u    126.1815 
   113         6.2778k   -111.5091      2.6579u     19.1580 
   114         6.3333k   -106.8963      4.5205u     54.5843 
   115         6.3889k   -111.3310      2.7130u     20.2634 
   116         6.4444k   -117.2630      1.3704u    -22.2025 
   117         6.5000k   -111.0999      2.7861u     21.2314 
   118         6.5556k   -107.5470      4.1942u     51.6271 
   119         6.6111k   -110.8218      2.8768u     22.0097 
   120         6.6667k   -104.4707      5.9768u     12.5718 
   121         6.7222k   -110.5040      2.9840u     22.5590 
   122         6.7778k   -107.3076      4.3114u     75.2621 
   123         6.8333k   -110.1544      3.1066u     22.8539 
   124         6.8889k    -85.6178     52.3730u      5.9503 
   125         6.9444k   -109.7808      3.2431u     22.8818 
   126         7.0000k    -51.7669      2.5802m    -75.2976 
   127         7.0556k   -109.3905      3.3921u     22.6415 
   128         7.1111k    -93.4012     21.3768u     46.9186 
   129         7.1667k   -108.9899      3.5523u     22.1400 
   130         7.2222k   -105.4677      5.3286u   -101.0786 
   131         7.2778k   -108.5843      3.7221u     21.3903 
   132         7.3333k   -107.2327      4.3488u     19.2842 
   133         7.3889k   -108.1783      3.9002u     20.4089 
   134         7.4444k   -105.4434      5.3435u    -14.9174 
   135         7.5000k   -107.7751      4.0855u     19.2138 
   136         7.5556k   -109.2273      3.4565u     58.2551 
   137         7.6111k   -107.3774      4.2769u     17.8233 
   138         7.6667k   -104.9150      5.6787u     32.6856 
   139         7.7222k   -106.9872      4.4734u     16.2549 
   140         7.7778k   -101.7072      8.2156u   -164.9138 
   141         7.8333k   -106.6059      4.6742u     14.5247 
   142         7.8889k    -87.2690     43.3064u    101.0641 
   143         7.9444k   -106.2347      4.8783u     12.6476 
   144         8.0000k    -57.5896      1.3198m    155.3385 
   145         8.0556k   -105.8743      5.0849u     10.6374 
   146         8.1111k    -92.7445     23.0555u     46.0146 
   147         8.1667k   -105.5254      5.2933u      8.5065 
   148         8.2222k    -99.2110     10.9509u      8.2562 
   149         8.2778k   -105.1883      5.5028u      6.2666 
   150         8.3333k   -103.1715      6.9410u     35.7261 
   151         8.3889k   -104.8633      5.7126u      3.9287 
   152         8.4444k   -102.6525      7.3684u      1.1950 
   153         8.5000k   -104.5504      5.9222u      1.5025 
   154         8.5556k   -104.3577      6.0550u    -12.7973 
   155         8.6111k   -104.2496      6.1309u     -1.0029 
   156         8.6667k   -101.4275      8.4845u     -2.5823 
   157         8.7222k   -103.9606      6.3382u     -3.5798 
   158         8.7778k    -96.0385     15.7789u    -53.5891 
   159         8.8333k   -103.6834      6.5438u     -6.2212 
   160         8.8889k    -94.4245     19.0010u     30.8563 
   161         8.9444k   -103.4176      6.7471u     -8.9213 
   162         9.0000k    -52.1302      2.4745m    -98.1314 
   163         9.0556k   -103.1630      6.9479u    -11.6748 
   164         9.1111k    -94.0751     19.7808u    129.1569 
   165         9.1667k   -102.9193      7.1456u    -14.4770 
   166         9.2222k   -103.6934      6.5363u    -11.9633 
   167         9.2778k   -102.6863      7.3398u    -17.3236 
   168         9.3333k   -105.5644      5.2696u    -53.2964 
   169         9.3889k   -102.4637      7.5304u    -20.2107 
   170         9.4444k   -100.6052      9.3269u     -7.8408 
   171         9.5000k   -102.2512      7.7168u    -23.1346 
   172         9.5556k   -101.5927      8.3246u    -15.6277 
   173         9.6111k   -102.0486      7.8990u    -26.0921 
   174         9.6667k   -103.9813      6.3232u      3.7229 
   175         9.7222k   -101.8555      8.0765u    -29.0803 
   176         9.7778k    -94.9493     17.8870u    -25.1318 
   177         9.8333k   -101.6715      8.2494u    -32.0970 
   178         9.8889k    -87.0685     44.3174u     70.5657 
   179         9.9444k   -101.4964      8.4174u    -35.1402 
   180        10.0000k    -53.9062      2.0169m     -9.2755 
   181        10.0556k   -101.3299      8.5803u    -38.2085 
   182        10.1111k    -99.7274     10.3188u    -89.9233 
   183        10.1667k   -101.1718      8.7380u    -41.3006 
   184        10.2222k    -96.4734     15.0082u    -19.8051 
   185        10.2778k   -101.0217      8.8903u    -44.4152 
   186        10.3333k    -99.1919     10.9750u    -55.7458 
   187        10.3889k   -100.8795      9.0370u    -47.5513 
   188        10.4444k   -103.3630      6.7897u    -43.4650 
   189        10.5000k   -100.7450      9.1780u    -50.7080 
   190        10.5556k    -99.5690     10.5087u    -56.8279 
   191        10.6111k   -100.6180      9.3132u    -53.8844 
   192        10.6667k    -99.8289     10.1990u    -82.3528 
   193        10.7222k   -100.4983      9.4424u    -57.0799 
   194        10.7778k    -95.4778     16.8310u      3.5919 
   195        10.8333k   -100.3858      9.5656u    -60.2940 
   196        10.8889k    -85.4383     53.4671u    165.9203 
   197        10.9444k   -100.2802      9.6825u    -63.5262 
   198        11.0000k    -57.5201      1.3304m     86.0973 
   199        11.0556k   -100.1816      9.7931u    -66.7760 
   200        11.1111k    -93.9136     20.1522u    -89.1731 
   201        11.1667k   -100.0896      9.8973u    -70.0430 
   202        11.2222k   -102.6832      7.3424u     -5.5288 
   203        11.2778k   -100.0044      9.9949u    -73.3265 
   204        11.3333k    -98.0285     12.5479u    -67.7400 
   205        11.3889k    -99.9256     10.0860u    -76.6260 
   206        11.4444k   -100.7795      9.1416u    -66.1809 
   207        11.5000k    -99.8533     10.1704u    -79.9409 
   208        11.5556k    -99.1518     11.0258u    -63.3967 
   209        11.6111k    -99.7871     10.2481u    -83.2708 
