 ****** HSPICE -- D-2010.03-SP1 32-BIT (May 26 2010) winnt ******               
  Copyright (C) 2010 Synopsys, Inc. All Rights Reserved.                        
  Unpublished-rights reserved under US copyright laws.
  This program is protected by law and is subject to the 
  terms and conditions of the license agreement from Synopsys.
  Use of this program is your acceptance to be bound by the 
  license agreement. HSPICE is the trademark of Synopsys, Inc.
  Input File: c:\users\personal account\desktop\sim2\q1_c.sp                    
  lic:  
  lic: FLEXlm: v8.5b 
  lic: USER:   Personal Account     HOSTNAME: Personal-Account 
  lic: HOSTID: "8c164510c74c 74e5f9801d02 00ff2d13c27d 74e5f9801cfe 74e5f9801cff
  
  lic: Using FLEXlm license file: 
  lic: 27000@elena 
  lic: Checkout 1 hspice 
  lic: License/Maintenance for hspice will expire on 31-dec-2020/2007.9 
  lic: NODE LOCKED license on hostid "8c164510c74c 74e5f9801d02 00ff2d13c27d 74e
 5
  lic:   
 Init: read install configuration file: C:\synopsys\Hspice_D-2010.03-SP1\meta.cfg
1****** HSPICE -- D-2010.03-SP1 32-BIT (May 26 2010) winnt ******               
 ******  
 lab4 - arsalan firoozi 97102225

  ******  bjt   model parameters tnom=  25.000 temp=  25.000 *****

 ************************************************************************
 *** bjt model parameters   model name:   0:mynpn    model type:npn   ***
 ************************************************************************

     names  values   units     names  values   units     names  values   units
     -----  ------   -----     -----  ------   -----     -----  ------   -----

   1*** basic dc parameters ***
    level=   1.00                bf= 100.00                br=   1.00         
      brs=   0.                bulk=  gnd                  is= 1.0e-16 amps   
      iss=   0.    amps          nf=   1.00                nr=   1.00         
       ns=   1.00               ibe=   0.    amps         ibc=   0.    amps   
     subs=   1.00             expli=   0.    amps   

   2*** low current beta degradation effect parameters ***
      isc=   0.    amps         ise=   0.    amps          nc=   2.00         
       ne=   1.50         

   3*** base width modulation parameters ***
      vaf= 150.00  volts        var=   0.    volts  

   4*** high current beta degradation effect parameters ***
      ikf=   0.    amps         nkf= 500.00m              ikr=   0.    amps   

   5*** parasitic resistor parameters ***
      irb=   0.    amps          rb=   0.    ohms         rbm=   0.    ohms   
       re=   0.    ohms          rc=   0.    ohms         rcc=   0.    ohms   
       vo=   0.    volts      gamma=   0.           

   6*** junction capacitor parameters ***
     cbcp=   0.    farad       cbep=   0.    farad       ccsp=   0.    farad  
      cjc=   2.00p farad        cje=   2.00p farad        cjs=   2.50p farad  
       fc= 500.00m              mjc= 500.00m              mje= 500.00m        
      mjs= 500.00m              vjc= 750.00m volts        vje= 750.00m volts  
      vjs= 750.00m volts       xcjc=   1.00               qco=   0.    coul   

   7*** transit time parameters ***
      itf=   0.    amps         ptf=   0.    deg k         tf= 100.00p secs   
       tr=   0.    secs         vtf=   0.                 xtf=   0.           

   8*** temperature compensation parameters ***
     tlev=   0.               tlevc=   0.                tre1=   0.    /deg   
     tre2=   0.    /deg2       trb1=   0.    /deg        trc1=   0.    /deg   
     trb2=   0.    /deg2       trm1=   0.    /deg         xtb=   0.           
     trm2=   0.    /deg2        xti=   3.00               cte=   0.    /deg   
      ctc=   0.    /deg         cts=   0.    /deg        trc2=   0.    /deg2  
     tref=  25.00   deg c       bex=   2.42              bexv=   1.90         

   9*** noise parameters ***
       kf=   0.                  af=   1.00         
  **info** (c:\users\personal account\desktop\sim2\q1_c.sp:11) DC voltage reset to initial transient source value              in source        0:vid                 new dc=  0.0000D+00
 
      
 *****************************************************************
 ******  option summary
 ******
 runlvl  = 3         bypass  = 2         
1****** HSPICE -- D-2010.03-SP1 32-BIT (May 26 2010) winnt ******               
 ******  
 lab4 - arsalan firoozi 97102225

  ******  operating point information tnom=  25.000 temp=  25.000 *****
 ***** operating point status is all       simulation time is     0.     
    node    =voltage      node    =voltage      node    =voltage

 +0:1       =-256.1992u 0:2       =-752.1269m 0:3       =   0.     
 +0:4       = 253.7842m 0:5       =  -3.9881m 0:6       =-552.9932m
 +0:100     =  10.0000  0:200     = -10.0000 


 ****  voltage sources

 subckt                                   
 element  0:vcc      0:vee      0:vid     
  volts     10.0000   -10.0000     0.     
  current   -5.6586m    6.0000m   -5.1240u
  power     56.5865m   60.0000m    0.     

     total voltage source power dissipation=  116.5865m       watts



 ***** current sources

 subckt                        
 element  0:i1       0:i2      
  volts      9.2479     9.4470 
  current    1.0000m    5.0000m
  power     -9.2479m  -47.2350m


     total current source power dissipation= -56.4829m       watts

 **** resistors

 subckt                                                         
 element  0:r1       0:r2       0:r5       0:r3e      0:r4e     
  r value   20.0000k   50.0000     2.0000k   10.0000k  900.0000 
  v drop     9.7462   256.1992u -552.9932m -552.9932m   -3.9881m
  current  487.3108u    5.1240u -276.4966u  -55.2993u   -4.4312u
  power      4.7494m    1.3128n  152.9008u   30.5802u   17.6722n


 **** bipolar junction transistors


 subckt                                   
 element  0:q1       0:q2       0:q3      
 model    0:mynpn    0:mynpn    0:mynpn   
  ib         5.1240u    4.4312u   43.4262u
  ic       546.5601u  443.8846u    4.6248m
  vbe      751.8707m  748.1388m  806.7774m
  vce       10.7521     1.0059    10.5530 
  vbc      -10.0003  -257.7723m   -9.7462 
  vs       -10.0000  -253.7842m  -10.0000 
  power      5.8805m  449.8236u   48.8403m
  betad    106.6668   100.1718   106.4975 
  gm        21.2703m   17.2743m  179.9806m
  rpi        5.0140k    5.7979k  591.6212 
  rx         0.         0.         0.     
  ro       292.7404k  338.5064k   34.5414k
  cpi        5.1299p    4.7252p   21.0767p
  cmu      528.2642f    1.7254p  534.6188f
  cbx        0.         0.         0.     
  ccs      660.3382f    2.1610p  660.3382f
  betaac   106.6497   100.1547   106.4803 
  ft       598.3019x  426.2068x    1.3255g



1****** HSPICE -- D-2010.03-SP1 32-BIT (May 26 2010) winnt ******               
 ******  
 lab4 - arsalan firoozi 97102225

  ******  fft analysis tnom=  25.000 temp=  25.000 *****
 fft components of transient response v(6)

 Window: Rectangular     

 DC: ON
 First Harmonic:   55.5556       
 Start Freq:   55.5556       
 Stop  Freq:   28.4444k      

 dc component: mag(dB)=  -7.349E+00  mag=   4.291E-01  phase=   0.000E+00

 frequency    frequency    fft_mag     fft_mag
    fft_phase
   index        (hz)        (dB)                    (deg)

     1        55.5556     -89.8800     32.0628u    135.6352m
     2       111.1111     -61.0588    885.2349u   -107.2842 
     3       166.6667     -89.8855     32.0424u    421.7709m
     4       222.2222     -76.1124    156.4516u    -43.6050 
     5       277.7778     -89.8935     32.0130u    741.8368m
     6       333.3333     -86.2909     48.4678u     15.9165 
     7       388.8889     -89.9005     31.9872u      1.0947 
     8       444.4444     -91.9659     25.2178u     38.9143 
     9       500.0000     -89.9048     31.9713u      1.4674 
    10       555.5556     -88.2336     38.7543u     85.2143 
    11       611.1111     -89.9069     31.9636u      1.8491 
    12       666.6667     -84.4574     59.8592u    173.5069 
    13       722.2222     -89.9080     31.9593u      2.2395 
    14       777.7778     -85.1602     55.2067u   -102.4988 
    15       833.3333     -89.9087     31.9571u      2.6496 
    16       888.8889     -81.1265     87.8361u     79.4979 
    17       944.4444     -89.9068     31.9638u      3.0913 
    18         1.0000k      0.          1.0000     -90.0124 
    19         1.0556k    -89.8992     31.9919u      3.5611 
    20         1.1111k    -79.4048    107.0929u    -19.7333 
    21         1.1667k    -89.8840     32.0480u      4.0382 
    22         1.2222k    -82.8419     72.0950u     97.8629 
    23         1.2778k    -89.8621     32.1289u      4.5028 
    24         1.3333k    -84.8147     57.4466u    173.4201 
    25         1.3889k    -89.8355     32.2273u      4.9474 
    26         1.4444k    -89.6238     33.0226u    -84.5395 
    27         1.5000k    -89.8056     32.3385u      5.3732 
    28         1.5556k    -94.2614     19.3611u    -19.1152 
    29         1.6111k    -89.7728     32.4607u      5.7820 
    30         1.6667k    -86.5772     46.8966u    -10.5850 
    31         1.7222k    -89.7374     32.5934u      6.1734 
    32         1.7778k    -75.2838    172.1110u     46.8781 
    33         1.8333k    -89.6997     32.7351u      6.5450 
    34         1.8889k    -60.2828    967.9670u    103.2926 
    35         1.9444k    -89.6607     32.8826u      6.8948 
    36         2.0000k    -16.9103    142.7206m   -179.8222 
    37         2.0556k    -89.6215     33.0312u      7.2264 
    38         2.1111k    -61.6590    826.1346u   -108.2103 
    39         2.1667k    -89.5827     33.1793u      7.5498 
    40         2.2222k    -76.7979    144.5795u    -38.5553 
    41         2.2778k    -89.5431     33.3309u      7.8721 
    42         2.3333k    -84.9465     56.5816u     16.7484 
    43         2.3889k    -89.5014     33.4910u      8.1910 
    44         2.4444k    -89.4298     33.7683u     47.4559 
    45         2.5000k    -89.4576     33.6603u      8.4984 
    46         2.5556k    -86.9045     45.1624u     77.0585 
    47         2.6111k    -89.4127     33.8350u      8.7903 
    48         2.6667k    -84.5382     59.3045u    157.7799 
    49         2.7222k    -89.3677     34.0107u      9.0711 
    50         2.7778k    -91.0569     27.9998u    -92.7090 
    51         2.8333k    -89.3227     34.1874u      9.3511 
    52         2.8889k    -78.3210    121.3250u    113.8049 
    53         2.9444k    -89.2761     34.3713u      9.6374 
    54         3.0000k    -11.4686    267.0349m    -90.1505 
    55         3.0556k    -89.2257     34.5713u      9.9246 
    56         3.1111k    -75.2258    173.2648u      2.9099 
    57         3.1667k    -89.1709     34.7900u     10.1962 
    58         3.2222k    -81.8403     80.9070u     88.0185 
    59         3.2778k    -89.1134     35.0213u     10.4388 
    60         3.3333k    -85.9046     50.6721u    164.8616 
    61         3.3889k    -89.0554     35.2559u     10.6520 
    62         3.4444k    -90.8300     28.7408u    -69.6617 
    63         3.5000k    -88.9983     35.4882u     10.8450 
    64         3.5556k    -94.0787     19.7728u     -1.7382 
    65         3.6111k    -88.9424     35.7175u     11.0284 
    66         3.6667k    -84.9595     56.4968u     -7.0067 
    67         3.7222k    -88.8867     35.9472u     11.2103 
    68         3.7778k    -74.4816    188.7649u     44.3080 
    69         3.8333k    -88.8299     36.1829u     11.3923 
    70         3.8889k    -59.5953      1.0477m     97.9952 
    71         3.9444k    -88.7711     36.4289u     11.5696 
    72         4.0000k    -18.8371    114.3258m   -179.8083 
    73         4.0556k    -88.7103     36.6848u     11.7354 
    74         4.1111k    -62.0572    789.1140u   -105.9260 
    75         4.1667k    -88.6481     36.9484u     11.8893 
    76         4.2222k    -77.1935    138.1417u    -35.3776 
    77         4.2778k    -88.5844     37.2203u     12.0342 
    78         4.3333k    -83.7222     65.1460u     11.9446 
    79         4.3889k    -88.5186     37.5036u     12.1694 
    80         4.4444k    -87.8658     40.4308u     45.0225 
    81         4.5000k    -88.4502     37.8001u     12.2905 
    82         4.5556k    -85.7368     51.6605u     65.5551 
    83         4.6111k    -88.3793     38.1098u     12.3936 
    84         4.6667k    -85.2558     54.6022u    145.6577 
    85         4.7222k    -88.3058     38.4335u     12.4765 
    86         4.7778k    -96.8709     14.3369u    -24.0196 
    87         4.8333k    -88.2294     38.7729u     12.5346 
    88         4.8889k    -77.3471    135.7211u    149.1114 
    89         4.9444k    -88.1500     39.1289u     12.5585 
    90         5.0000k    -18.8226    114.5172m    -90.5556 
    91         5.0556k    -88.0686     39.4977u     12.5365 
    92         5.1111k    -73.7720    204.8328u      7.4031 
    93         5.1667k    -87.9871     39.8699u     12.4598 
    94         5.2222k    -81.2736     86.3612u     77.3079 
    95         5.2778k    -87.9085     40.2323u     12.3285 
    96         5.3333k    -87.5935     41.7181u    162.7823 
    97         5.3889k    -87.8352     40.5734u     12.1531 
    98         5.4444k    -90.3830     30.2587u    -47.6287 
    99         5.5000k    -87.7682     40.8875u     11.9494 
   100         5.5556k    -92.4801     23.7681u     -4.1615 
   101         5.6111k    -87.7074     41.1746u     11.7315 
   102         5.6667k    -82.8630     71.9200u     -9.8303 
   103         5.7222k    -87.6520     41.4381u     11.5084 
   104         5.7778k    -73.8547    202.8915u     37.3562 
   105         5.8333k    -87.6013     41.6808u     11.2840 
   106         5.8889k    -58.9012      1.1349m     94.3780 
   107         5.9444k    -87.5550     41.9033u     11.0606 
   108         6.0000k    -21.7795     81.4756m   -179.9862 
   109         6.0556k    -87.5135     42.1041u     10.8437 
   110         6.1111k    -62.5166    748.4613u   -102.1032 
   111         6.1667k    -87.4765     42.2838u     10.6447 
   112         6.2222k    -77.3849    135.1310u    -35.3871 
   113         6.2778k    -87.4425     42.4498u     10.4754 
   114         6.3333k    -83.0391     70.4763u      4.0339 
   115         6.3889k    -87.4090     42.6140u     10.3403 
   116         6.4444k    -87.1642     43.8319u     33.0861 
   117         6.5000k    -87.3736     42.7880u     10.2357 
   118         6.5556k    -85.2554     54.6049u     53.9464 
   119         6.6111k    -87.3345     42.9807u     10.1538 
   120         6.6667k    -87.0457     44.4341u    143.7197 
   121         6.7222k    -87.2904     43.1996u     10.0844 
   122         6.7778k    -94.0298     19.8844u     14.5822 
   123         6.8333k    -87.2401     43.4506u     10.0134 
   124         6.8889k    -73.7637    205.0280u   -171.7588 
   125         6.9444k    -87.1834     43.7352u      9.9228 
   126         7.0000k    -25.1794     55.0846m    -91.2650 
   127         7.0556k    -87.1214     44.0485u      9.7949 
   128         7.1111k    -73.8699    202.5375u    313.3217m
   129         7.1667k    -87.0562     44.3804u      9.6170 
   130         7.2222k    -80.9822     89.3082u     68.2165 
   131         7.2778k    -86.9904     44.7175u      9.3836 
   132         7.3333k    -89.2026     34.6633u    169.8776 
   133         7.3889k    -86.9267     45.0469u      9.0974 
   134         7.4444k    -89.0481     35.2855u    -38.0318 
   135         7.5000k    -86.8666     45.3595u      8.7665 
   136         7.5556k    -91.5198     26.5468u    -20.3540 
   137         7.6111k    -86.8111     45.6507u      8.3985 
   138         7.6667k    -81.8396     80.9132u    -16.7525 
   139         7.7222k    -86.7605     45.9174u      7.9978 
   140         7.7778k    -73.4066    213.6329u     30.0910 
   141         7.8333k    -86.7157     46.1546u      7.5668 
   142         7.8889k    -58.0772      1.2478m     94.4629 
   143         7.9444k    -86.6783     46.3537u      7.1105 
   144         8.0000k    -25.0696     55.7854m    179.5972 
   145         8.0556k    -86.6499     46.5056u      6.6414 
   146         8.1111k    -63.1504    695.7957u    -99.7180 
   147         8.1667k    -86.6311     46.6063u      6.1795 
   148         8.2222k    -77.4966    133.4044u    -38.4211 
   149         8.2778k    -86.6208     46.6614u      5.7471 
   150         8.3333k    -82.9905     70.8724u     -4.9299 
   151         8.3889k    -86.6165     46.6848u      5.3594 
   152         8.4444k    -86.7365     46.0441u     16.7243 
   153         8.5000k    -86.6149     46.6936u      5.0223 
   154         8.5556k    -85.4847     53.1819u     44.8476 
   155         8.6111k    -86.6130     46.7037u      4.7330 
   156         8.6667k    -89.0654     35.2150u    150.4855 
   157         8.7222k    -86.6084     46.7285u      4.4824 
   158         8.7778k    -95.6735     16.4561u     31.5173 
   159         8.8333k    -86.5993     46.7774u      4.2561 
   160         8.8889k    -69.8856    320.4213u   -156.0970 
   161         8.9444k    -86.5852     46.8530u      4.0372 
   162         9.0000k    -30.7850     28.8903m    -92.0879 
   163         9.0556k    -86.5668     46.9524u      3.8124 
   164         9.1111k    -73.8817    202.2614u    -13.4551 
   165         9.1667k    -86.5449     47.0709u      3.5740 
   166         9.2222k    -81.1071     88.0329u     62.0825 
   167         9.2778k    -86.5201     47.2057u      3.3162 
   168         9.3333k    -89.5290     33.3848u   -177.8138 
   169         9.3889k    -86.4929     47.3539u      3.0327 
   170         9.4444k    -88.5838     37.2227u    -42.2192 
   171         9.5000k    -86.4639     47.5119u      2.7160 
   172         9.5556k    -91.0645     27.9754u    -43.0878 
   173         9.6111k    -86.4345     47.6734u      2.3573 
   174         9.6667k    -81.7969     81.3123u    -26.9245 
   175         9.7222k    -86.4065     47.8272u      1.9483 
   176         9.7778k    -73.1282    220.5912u     24.2536 
   177         9.8333k    -86.3832     47.9555u      1.4866 
   178         9.8889k    -57.1950      1.3812m     97.5131 
   179         9.9444k    -86.3681     48.0391u    982.4165m
   180        10.0000k    -28.4260     37.9053m    178.9550 
   181        10.0556k    -86.3634     48.0653u    458.3326m
   182        10.1111k    -63.8490    642.0251u   -100.4981 
   183        10.1667k    -86.3691     48.0336u    -60.1362m
   184        10.2222k    -77.7232    129.9691u    -43.9698 
   185        10.2778k    -86.3837     47.9529u   -553.5261m
   186        10.3333k    -83.6315     65.8302u    -13.9823 
   187        10.3889k    -86.4051     47.8350u     -1.0110 
   188        10.4444k    -86.5381     47.1080u      3.3944 
   189        10.5000k    -86.4313     47.6906u     -1.4275 
   190        10.5556k    -86.3006     48.4136u     40.8782 
   191        10.6111k    -86.4608     47.5290u     -1.8004 
   192        10.6667k    -89.2042     34.6570u    154.1916 
   193        10.7222k    -86.4919     47.3594u     -2.1275 
   194        10.7778k    -99.5549     10.5258u    110.1295 
   195        10.8333k    -86.5225     47.1928u     -2.4087 
   196        10.8889k    -67.5667    418.4683u   -155.6790 
   197        10.9444k    -86.5505     47.0408u     -2.6495 
   198        11.0000k    -35.5047     16.7790m    -92.5198 
   199        11.0556k    -86.5743     46.9121u     -2.8614 
   200        11.1111k    -73.7817    204.6043u    -24.0019 
   201        11.1667k    -86.5931     46.8105u     -3.0578 
   202        11.2222k    -81.6843     82.3726u     61.1508 
   203        11.2778k    -86.6070     46.7358u     -3.2510 
   204        11.3333k    -88.6897     36.7718u   -173.0501 
   205        11.3889k    -86.6161     46.6867u     -3.4512 
   206        11.4444k    -89.0932     35.1025u    -54.3624 
   207        11.5000k    -86.6208     46.6615u     -3.6690 
   208        11.5556k    -90.7873     28.8826u    -66.5867 
   209        11.6111k    -86.6217     46.6567u     -3.9174 
