 ****** HSPICE -- D-2010.03-SP1 32-BIT (May 26 2010) winnt ******               
  Copyright (C) 2010 Synopsys, Inc. All Rights Reserved.                        
  Unpublished-rights reserved under US copyright laws.
  This program is protected by law and is subject to the 
  terms and conditions of the license agreement from Synopsys.
  Use of this program is your acceptance to be bound by the 
  license agreement. HSPICE is the trademark of Synopsys, Inc.
  Input File: c:\users\personal account\desktop\projectphase2\regulator\rreg.sp 
  lic:  
  lic: FLEXlm: v8.5b 
  lic: USER:   Personal Account     HOSTNAME: Personal-Account 
  lic: HOSTID: "8c164510c74c 00ff2d13c27d 2e98a80fac68 74e5f9801cff 76e5f9801cfe
 "
  lic: Using FLEXlm license file: 
  lic: 27000@elena 
  lic: Checkout 1 hspice 
  lic: License/Maintenance for hspice will expire on 31-dec-2020/2007.9 
  lic: NODE LOCKED license on hostid "8c164510c74c 00ff2d13c27d 2e98a80fac68 74e
 5
  lic:   
 Init: read install configuration file: C:\synopsys\Hspice_D-2010.03-SP1\meta.cfg
1****** HSPICE -- D-2010.03-SP1 32-BIT (May 26 2010) winnt ******               
 ******  
 project phase 2

  ******  circuit name directory
 circuit number to circuit name directory
   number circuitname                     definition         multiplier
        0 main circuit
        1 x1.                             phase1opamp        1.00 
1****** HSPICE -- D-2010.03-SP1 32-BIT (May 26 2010) winnt ******               
 ******  
 project phase 2

  ******  diode model parameters tnom=  25.000 temp=  25.000 *****
 ********************************************************
 *** common model parameters model name:   0:d1n5221b****
 ********************************************************

     names  values   units     names  values   units     names  values   units
     -----  ------   -----     -----  ------   -----     -----  ------   -----

   1*** dc breakdown parameters ***
       vb=   2.40  volts        ibv=  20.00m amps   

   2*** parasitic resistance parameters ***
       rs=  30.00  ohms   

   3*** capacitance parameters ***
       fc= 500.00m              fcs= 500.00m                m= 500.00m        
     mjsw= 330.00m               pb= 800.00m volts        php= 800.00m volts  
       tt=   0.    secs         cjo=   0.    f/area       cjp=   0.    f/pj   

   4*** temperature effect parameters ***
     tlev=   0.               tlevc=   0.                 tcv=   0.    v/deg k
      trs=   0.    /deg         cta=   0.    /deg         ctp=   0.    /deg   
      xti=   3.00            xtitun=   3.00               keg=   1.00         
       eg=   1.11  ev          gap1= 702.00u  ev/deg     gap2=   1.11k  deg   
     ttt1=   0.    /deg        ttt2=   0.    /deg2        tm1=   0.    /deg   
      tm2=   0.    /deg2        tpb=   0.    v/deg k     tphp=   0.    v/deg k
     tref=  25.00   deg c 

   5*** noise parameters ***
       kf=   0.                  af=   1.00         

   ***  level   1  model parameters  ***

    level=   1.00                is=  10.00f amps         jsw=   0.    amps   
        n=   1.00               nbv=   1.00                ik=   0.    amp    
     area=   1.00                pj=   0.                 ikr=   0.    amp    
    expli=   0.    amps      explir=   0.    amps        jtun=   0.    amps   
   jtunsw=   0.    amps        ntun=  30.00         
  
1****** HSPICE -- D-2010.03-SP1 32-BIT (May 26 2010) winnt ******               
 ******  
 project phase 2

  ******  bjt   model parameters tnom=  25.000 temp=  25.000 *****

 ************************************************************************
 *** bjt model parameters   model name:   0:qbd135   model type:npn   ***
 ************************************************************************

     names  values   units     names  values   units     names  values   units
     -----  ------   -----     -----  ------   -----     -----  ------   -----

   1*** basic dc parameters ***
    level=   1.00                bf= 124.20                br=  13.26         
      brs=   0.                bulk=  gnd                  is=  48.15f amps   
      iss=   0.    amps          nf= 989.70m               nr= 989.50m        
       ns=   1.00               ibe=   0.    amps         ibc=   0.    amps   
     subs=   1.00             expli=   0.    amps   

   2*** low current beta degradation effect parameters ***
      isc= 129.50f amps         ise=  13.89f amps          nc=   1.18         
       ne=   1.60         

   3*** base width modulation parameters ***
      vaf= 222.00  volts        var=  81.40  volts  

   4*** high current beta degradation effect parameters ***
      ikf=   1.60  amps         nkf= 500.00m              ikr= 290.00m amps   

   5*** parasitic resistor parameters ***
      irb=   1.00u amps          rb= 500.00m ohms         rbm= 500.00m ohms   
       re= 165.00m ohms          rc=  96.00m ohms         rcc=   0.    ohms   
       vo=   0.    volts      gamma=   0.           

   6*** junction capacitor parameters ***
     cbcp=   0.    farad       cbep=   0.    farad       ccsp=   0.    farad  
      cjc=  30.40p farad        cje= 124.30p farad        cjs=   0.    farad  
       fc= 935.90m              mjc= 437.10m              mje= 347.60m        
      mjs= 333.00m              vjc= 564.20m volts        vje= 731.30m volts  
      vjs= 750.00m volts       xcjc= 150.00m              qco=   0.    coul   

   7*** transit time parameters ***
      itf=   3.35  amps         ptf=   0.    deg k         tf= 647.80p secs   
       tr=   0.    secs         vtf=   2.65               xtf=  29.00         

   8*** temperature compensation parameters ***
     tlev=   0.               tlevc=   0.                tre1=   0.    /deg   
     tre2=   0.    /deg2       trb1=   0.    /deg        trc1=   0.    /deg   
     trb2=   0.    /deg2       trm1=   0.    /deg         xtb=   0.           
     trm2=   0.    /deg2        xti=   3.00               cte=   0.    /deg   
      ctc=   0.    /deg         cts=   0.    /deg        trc2=   0.    /deg2  
     tref=  25.00   deg c       bex=   2.42              bexv=   1.90         

   9*** noise parameters ***
       kf=   0.                  af=   1.00         

 ************************************************************************
 *** bjt model parameters   model name:   1:mynpn    model type:npn   ***
 ************************************************************************

     names  values   units     names  values   units     names  values   units
     -----  ------   -----     -----  ------   -----     -----  ------   -----

   1*** basic dc parameters ***
    level=   1.00                bf= 100.00                br=   1.00         
      brs=   0.                bulk=  gnd                  is= 1.0e-16 amps   
      iss=   0.    amps          nf=   1.00                nr=   1.00         
       ns=   1.00               ibe=   0.    amps         ibc=   0.    amps   
     subs=   1.00             expli=   0.    amps   

   2*** low current beta degradation effect parameters ***
      isc=   0.    amps         ise=   0.    amps          nc=   2.00         
       ne=   1.50         

   3*** base width modulation parameters ***
      vaf= 150.00  volts        var=   0.    volts  

   4*** high current beta degradation effect parameters ***
      ikf=   0.    amps         nkf= 500.00m              ikr=   0.    amps   

   5*** parasitic resistor parameters ***
      irb=   0.    amps          rb=   0.    ohms         rbm=   0.    ohms   
       re=   0.    ohms          rc=   0.    ohms         rcc=   0.    ohms   
       vo=   0.    volts      gamma=   0.           

   6*** junction capacitor parameters ***
     cbcp=   0.    farad       cbep=   0.    farad       ccsp=   0.    farad  
      cjc=   2.00p farad        cje=   2.00p farad        cjs=   2.50p farad  
       fc= 500.00m              mjc= 500.00m              mje= 500.00m        
      mjs= 500.00m              vjc= 750.00m volts        vje= 750.00m volts  
      vjs= 750.00m volts       xcjc=   1.00               qco=   0.    coul   

   7*** transit time parameters ***
      itf=   0.    amps         ptf=   0.    deg k         tf= 100.00p secs   
       tr=   0.    secs         vtf=   0.                 xtf=   0.           

   8*** temperature compensation parameters ***
     tlev=   0.               tlevc=   0.                tre1=   0.    /deg   
     tre2=   0.    /deg2       trb1=   0.    /deg        trc1=   0.    /deg   
     trb2=   0.    /deg2       trm1=   0.    /deg         xtb=   0.           
     trm2=   0.    /deg2        xti=   3.00               cte=   0.    /deg   
      ctc=   0.    /deg         cts=   0.    /deg        trc2=   0.    /deg2  
     tref=  25.00   deg c       bex=   2.42              bexv=   1.90         

   9*** noise parameters ***
       kf=   0.                  af=   1.00         

 ************************************************************************
 *** bjt model parameters   model name:   1:mypnp    model type:pnp   ***
 ************************************************************************

     names  values   units     names  values   units     names  values   units
     -----  ------   -----     -----  ------   -----     -----  ------   -----

   1*** basic dc parameters ***
    level=   1.00                bf= 100.00                br=   1.00         
      brs=   0.                bulk=  gnd                  is= 1.0e-16 amps   
      iss=   0.    amps          nf=   1.00                nr=   1.00         
       ns=   1.00               ibe=   0.    amps         ibc=   0.    amps   
     subs=  -1.00             expli=   0.    amps   

   2*** low current beta degradation effect parameters ***
      isc=   0.    amps         ise=   0.    amps          nc=   2.00         
       ne=   1.50         

   3*** base width modulation parameters ***
      vaf=  70.00  volts        var=   0.    volts  

   4*** high current beta degradation effect parameters ***
      ikf=   0.    amps         nkf= 500.00m              ikr=   0.    amps   

   5*** parasitic resistor parameters ***
      irb=   0.    amps          rb=   0.    ohms         rbm=   0.    ohms   
       re=   0.    ohms          rc=   0.    ohms         rcc=   0.    ohms   
       vo=   0.    volts      gamma=   0.           

   6*** junction capacitor parameters ***
     cbcp=   0.    farad       cbep=   0.    farad       ccsp=   0.    farad  
      cjc=   2.00p farad        cje=   2.00p farad        cjs=   2.50p farad  
       fc= 500.00m              mjc= 500.00m              mje= 500.00m        
      mjs= 500.00m              vjc= 750.00m volts        vje= 750.00m volts  
      vjs= 750.00m volts       xcjc=   1.00               qco=   0.    coul   

   7*** transit time parameters ***
      itf=   0.    amps         ptf=   0.    deg k         tf= 100.00p secs   
       tr=   0.    secs         vtf=   0.                 xtf=   0.           

   8*** temperature compensation parameters ***
     tlev=   0.               tlevc=   0.                tre1=   0.    /deg   
     tre2=   0.    /deg2       trb1=   0.    /deg        trc1=   0.    /deg   
     trb2=   0.    /deg2       trm1=   0.    /deg         xtb=   0.           
     trm2=   0.    /deg2        xti=   3.00               cte=   0.    /deg   
      ctc=   0.    /deg         cts=   0.    /deg        trc2=   0.    /deg2  
     tref=  25.00   deg c       bex=   2.42              bexv=   1.90         

   9*** noise parameters ***
       kf=   0.                  af=   1.00         
  **info** (c:\users\personal account\desktop\projectphase2\regulator\rreg.sp:31) DC voltage reset to initial transient source value              in source        0:vccs                new dc=  0.0000D+00
  **warning** (c:\users\personal account\desktop\projectphase2\regulator\myOpamp.sp:99) Capacitance of    1.000E+04 for x1.cdc is too high. Please verify capacitance value.
 

 **warning** the following singular supplies were terminated to 1 meg resistor 
   supply       node1            node2
  vee                     0:200              defined in subckt 0                     0:0                defined in subckt 0               
  vid                     1:17               defined in subckt phase1opamp           0:0                defined in subckt 0               
      
 *****************************************************************
 ******  option summary
 ******
 runlvl  = 5         bypass  = 2         
  Opening plot unit= 79
 file=c:\users\personal account\desktop\projectphase2\regulator\rreg.pa0       

1****** HSPICE -- D-2010.03-SP1 32-BIT (May 26 2010) winnt ******               
 ******  
 project phase 2

  ******  operating point information tnom=  25.000 temp=  25.000 *****
 ***** operating point status is all       simulation time is     0.     
    node    =voltage      node    =voltage      node    =voltage

 +0:1       =   2.3544  0:2       =   2.3552  0:3       =   5.8330 
 +0:4       =   6.4384  0:50      =   0.      0:100     =   8.0000 
 +0:200     =   0.      1:2       =   7.2004  1:3       =   3.1373 
 +1:5       =   2.3552  1:6       =   1.1343  1:7       =   1.1352 
 +1:8       =   1.9139  1:9       =   6.4407  1:10      =   6.4476 
 +1:11      = 799.3440m 1:12      =   7.2205  1:13      =   7.2200 
 +1:14      =   7.2174  1:16      = 781.8488m 1:17      =   0.     
 +1:44      =   2.3544  1:66      =   4.0000  1:101     =   2.4384 
 +1:102     =   2.4384 


 ****  voltage sources

 subckt                         x1         x1                   
 element  0:vccs     0:vee      1:vid      1:vreff    0:vcc     
  volts      0.         0.         0.         4.0000     8.0000 
  current  -25.8794m    0.         0.         0.       -25.8794m
  power      0.         0.         0.         0.       207.0355m

     total voltage source power dissipation=  207.0355m       watts



 **** resistors

 subckt                                    x1         x1         x1        
 element  0:r3       0:r1       0:r2       1:r2e      1:rb1      1:rb2     
  r value    5.6000k    2.2000k    3.3000k    2.1500k    1.0000k  316.0000 
  v drop     5.6456     2.3552    -3.4778     7.2004    -6.0861     1.9139 
  current    1.0081m    1.0705m   -1.0539m    3.3490m   -6.0861m    6.0565m
  power      5.6915m    2.5213m    3.6652m   24.1143m   37.0410m   11.5914m

 subckt   x1         x1         x1         x1        
 element  1:r4c      1:re2      1:r1c      1:rdc     
  r value    2.1500k  700.0000     4.3000k  100.0000x
  v drop     7.2007  -782.6424m    7.2182     0.     
  current    3.3491m   -1.1181m    1.6786m    0.     
  power     24.1160m  875.0416u   12.1167m    0.     


 **** voltage-controlled voltage sources


 subckt     x1         x1         x1      
 element  1:ex1      1:edc      1:edci    
  volts      0.         0.         2.4384 
  current   17.1521u   16.6598u    0.     




 **** diodes


 subckt             
 element  0:d1      
 model    0:d1n5221b
  id        -1.0253m
  vd        -2.3544 
  req       25.0582 
  cap        0.     




 **** bipolar junction transistors


 subckt                x1         x1         x1         x1         x1      
 element  0:q1       1:q3       1:q4       1:q2       1:q1       1:q5      
 model    0:qbd135   1:mypnp    1:mypnp    1:mypnp    1:mypnp    1:mynpn   
  ib         8.4605u  -32.8336u  -32.8336u  -16.6598u  -17.1521u   14.5525u
  ic         1.0454m   -3.2834m   -3.4739m   -1.6950m   -1.7451m    1.4992m
  vbe      605.4011m -799.5937m -799.5937m -782.1631m -782.9112m  778.6886m
  vce        2.1670  -799.5937m   -4.8627    -2.0030    -2.0022     5.3124 
  vbc       -1.5616     0.         4.0631     1.2208     1.2193    -4.5337 
  vs        -7.9999    -7.2004    -7.2004    -2.3552    -2.3544    -6.4476 
  power      2.2706m    2.6516m   16.9188m    3.4082m    3.5074m    7.9758m
  betad    123.5642   100.0000   105.8044   101.7441   101.7418   103.0225 
  gm        41.0697m  127.7508m  135.1687m   65.9519m   67.8993m   58.3448m
  rpi        3.0101k  782.4866   782.4866     1.5421k    1.4979k    1.7655k
  rx       500.0000m    0.         0.         0.         0.         0.     
  ro       212.2702k   21.3196k   21.3196k   42.0172k   40.8113k  103.0750k
  cpi      186.6660p   15.8459p   16.5877p    9.6405p    9.8363p    8.8737p
  cmu        2.5537p    2.0000p  789.4961f    1.2338p    1.2343p  753.5156f
  cbx       14.4708p    0.         0.         0.         0.         0.     
  ccs        0.       767.8493f  767.8493f    1.2286p    1.2288p  807.0088f
  betaac   123.6227    99.9633   105.7677   101.7074   101.7051   103.0053 
  ft        32.0901x    1.1393g    1.2380g  965.2709x  976.1508x  964.5429x



 subckt     x1         x1         x1         x1         x1         x1      
 element  1:q6       1:q7       1:q8       1:q9       1:q10      1:q11     
 model    1:mynpn    1:mynpn    1:mynpn    1:mynpn    1:mypnp    1:mypnp   
  ib        15.0341u   32.5159u   32.5159u   32.5159u  -15.1871u  -14.8908u
  ic         1.5488m    3.2589m    3.2589m    3.2516m   -1.5187m   -1.4889m
  vbe      779.5251m  799.3440m  799.3440m  799.3440m -779.7851m -779.2790m
  vce        5.3063     1.1343     1.1352   799.3440m -779.7851m -772.4102m
  vbc       -4.5268  -334.9992m -335.8357m    0.         0.        -6.8688m
  vs        -6.4407    -1.1343    -1.1352  -799.3440m   -6.4407    -6.4407 
  power      8.2301m    3.7227m    3.7254m    2.6251m    1.1961m    1.1617m
  betad    103.0179   100.2233   100.2239   100.0000   100.0000    99.9902 
  gm        60.2731m  126.8223m  126.8230m  126.5397m   59.0907m   57.9324m
  rpi        1.7089k  790.1306   790.1306   790.1306     1.6917k    1.7253k
  rx         0.         0.         0.         0.         0.         0.     
  ro        99.7730k   46.1312k   46.1312k   46.1312k   46.0919k   47.0088k
  cpi        9.0677p   15.7502p   15.7503p   15.7219p    8.9510p    8.8344p
  cmu      754.0058f    1.6628p    1.6622p    2.0000p    2.0000p    2.0092p
  cbx        0.         0.         0.         0.         0.         0.     
  ccs      807.3941f    1.5772p    1.5769p    1.7394p  807.3941f  807.3941f
  betaac   103.0007   100.2062   100.2068    99.9829    99.9633    99.9535 
  ft       976.6918x    1.1592g    1.1592g    1.1364g  858.7905x  850.2949x



 subckt     x1         x1         x1         x1         x1         x1      
 element  1:q12      1:q13      1:q14      1:q15      1:q16      1:q17     
 model    1:mypnp    1:mypnp    1:mypnp    1:mypnp    1:mynpn    1:mynpn   
  ib       -15.0382u  -15.0382u  -10.2988u  -16.9736u   16.4573u   16.4573u
  ic        -1.5038m   -1.5038m   -1.1247m   -1.7162m    1.7078m    1.6457m
  vbe     -779.5320m -779.5320m -769.8059m -782.6424m  781.8488m  781.8488m
  vce     -779.5320m -780.0381m   -7.2174    -1.5616     6.4384   781.8488m
  vbc        0.       506.0841u    6.4476   778.9774m   -5.6565     0.     
  vs        -7.2205    -7.2205    -6.4476    -7.2174    -6.4384  -781.8488m
  power      1.1840m    1.1848m    8.1255m    2.6934m   11.0082m    1.2996m
  betad    100.0000   100.0007   109.2108   101.1128   103.7710   100.0000 
  gm        58.5113m   58.5118m   43.7632m   66.7770m   66.4609m   64.0454m
  rpi        1.7084k    1.7084k    2.4947k    1.5136k    1.5611k    1.5611k
  rx         0.         0.         0.         0.         0.         0.     
  ro        46.5482k   46.5482k   67.9694k   41.2406k   91.1452k   91.1452k
  cpi        8.8927p    8.8927p    7.4042p    9.7236p    9.6897p    9.4481p
  cmu        2.0000p    1.9993p  645.6070f    1.4007p  684.3041f    2.0000p
  cbx        0.         0.         0.         0.         0.         0.     
  ccs      766.8823f  766.8823f  807.0088f  767.0320f  807.5234f    1.7493p
  betaac    99.9633    99.9640   109.1741   101.0761   103.7539    99.9829 
  ft       854.9217x  854.9775x  865.2544x  955.3676x    1.0196g  890.3781x




          ***** job concluded
